Time Stamp,ID,Extended,Dir,Bus,LEN,D1,D2,D3,D4,D5,D6,D7,D8
3309509106,00000120,false,Rx,1,8,00,00,80,00,02,00,00,2A
3309510063,00000125,false,Rx,1,6,00,00,00,00,00,10,00,00
3309511173,00000165,false,Rx,1,8,02,4A,00,00,00,00,00,66
3309513083,00000130,false,Rx,1,7,80,00,00,00,40,00,BC,00
3309515101,00000130,false,Rx,1,7,80,00,00,00,40,01,A1,00
3309518122,00000120,false,Rx,1,8,00,25,80,00,00,00,01,5F
3309520068,00000125,false,Rx,1,6,00,00,00,00,01,0D,00,00
3309521170,00000165,false,Rx,1,8,01,EA,00,00,00,00,01,14
3309525092,00000130,false,Rx,1,7,80,00,00,00,60,02,F3,00
3309528119,00000120,false,Rx,1,8,01,25,84,B0,00,00,02,CA
3309530058,00000125,false,Rx,1,6,00,00,00,05,02,4B,00,00
3309531160,00000165,false,Rx,1,8,01,EB,00,00,00,00,02,75
3309535099,00000130,false,Rx,1,7,80,00,00,00,60,03,EE,00
3309538117,00000120,false,Rx,1,8,01,25,84,B0,00,00,03,D7
3309540063,00000125,false,Rx,1,6,00,00,00,05,03,56,00,00
3309541165,00000165,false,Rx,1,8,01,ED,00,00,00,00,03,E1
3309545088,00000130,false,Rx,1,7,80,00,00,00,60,04,BD,00
3309548123,00000120,false,Rx,1,8,01,25,84,B0,00,00,04,84
3309550068,00000125,false,Rx,1,6,00,00,00,05,04,05,00,00
3309551162,00000165,false,Rx,1,8,01,ED,00,00,00,00,04,B2
3309555093,00000130,false,Rx,1,7,80,00,00,00,60,05,A0,00
3309557334,00000135,false,Rx,1,8,08,00,70,00,00,00,00,01
3309558120,00000120,false,Rx,1,8,01,04,84,B0,00,00,05,F7
3309560066,00000125,false,Rx,1,6,00,00,00,05,05,18,00,00
3309561162,00000165,false,Rx,1,8,01,EE,00,00,00,00,05,65
3309565085,00000130,false,Rx,1,7,80,00,01,32,60,06,31,00
3309568120,00000120,false,Rx,1,8,01,04,84,B0,00,00,06,D0
3309570074,00000125,false,Rx,1,6,00,00,00,05,06,3F,00,00
3309571168,00000165,false,Rx,1,8,01,EF,00,00,00,00,06,04
3309575091,00000130,false,Rx,1,7,80,00,01,34,60,07,29,00
3309578125,00000120,false,Rx,1,8,01,04,84,B0,00,00,07,CD
3309580063,00000125,false,Rx,1,6,00,00,00,05,07,22,00,00
3309581173,00000165,false,Rx,1,8,01,EF,00,00,00,00,07,19
3309585089,00000130,false,Rx,1,7,80,00,01,35,60,08,1D,00
3309588122,00000120,false,Rx,1,8,01,04,84,B0,00,00,08,76
3309590068,00000125,false,Rx,1,6,00,00,00,05,08,99,00,00
3309591162,00000165,false,Rx,1,8,01,F0,00,00,00,00,08,73
3309595102,00000130,false,Rx,1,7,80,00,01,37,60,09,03,00
3309598120,00000120,false,Rx,1,8,01,04,84,B0,00,00,09,6B
3309600066,00000125,false,Rx,1,6,00,00,00,05,09,84,00,00
3309601168,00000165,false,Rx,1,8,01,F1,00,00,00,00,09,28
3309605092,00000130,false,Rx,1,7,80,00,01,38,60,0A,A2,00
3309608117,00000120,false,Rx,1,8,01,04,84,B0,00,00,0A,4C
3309610063,00000125,false,Rx,1,6,00,00,00,05,0A,A3,00,00
3309611165,00000165,false,Rx,1,8,01,F1,00,00,00,00,0A,0F
3309615094,00000130,false,Rx,1,7,80,00,01,39,60,0B,30,00
3309618121,00000120,false,Rx,1,8,01,04,84,B0,00,00,0B,51
3309620066,00000125,false,Rx,1,6,00,00,00,05,0B,BE,00,00
3309621167,00000165,false,Rx,1,8,01,F1,00,00,00,00,0B,12
3309625091,00000130,false,Rx,1,7,80,00,01,3A,60,0C,EF,00
3309628125,00000120,false,Rx,1,8,01,04,84,B0,00,00,0C,02
3309630070,00000125,false,Rx,1,6,00,00,00,05,0C,ED,00,00
3309631165,00000165,false,Rx,1,8,01,F2,00,00,00,00,0C,8B
3309635095,00000130,false,Rx,1,7,80,00,01,3B,60,0D,7D,00
3309638123,00000120,false,Rx,1,8,01,04,84,B0,00,00,0D,1F
3309640068,00000125,false,Rx,1,6,00,00,00,05,0D,F0,00,00
3309641171,00000165,false,Rx,1,8,01,F2,00,00,00,00,0D,96
3309645093,00000130,false,Rx,1,7,80,00,01,3D,60,0E,5F,00
3309648120,00000120,false,Rx,1,8,01,04,84,B0,00,00,0E,38
3309650065,00000125,false,Rx,1,6,00,00,00,05,0E,D7,00,00
3309651168,00000165,false,Rx,1,8,01,F2,00,00,00,00,0E,B1
3309655090,00000130,false,Rx,1,7,80,00,01,3C,60,0F,CD,00
3309657337,00000135,false,Rx,1,8,08,00,70,00,00,00,00,02
3309658124,00000120,false,Rx,1,8,01,04,84,B0,00,00,0F,25
3309660068,00000125,false,Rx,1,6,00,00,00,05,0F,CA,00,00
3309661166,00000165,false,Rx,1,8,01,F3,00,00,00,00,0F,EA
3309665098,00000130,false,Rx,1,7,80,00,01,3D,60,00,F9,00
3309668124,00000120,false,Rx,1,8,01,04,84,B0,00,00,00,9E
3309670069,00000125,false,Rx,1,6,00,00,00,05,00,71,00,00
3309671164,00000165,false,Rx,1,8,01,F3,00,00,00,00,00,51
3309675094,00000130,false,Rx,1,7,80,00,01,3C,60,01,6B,00
3309678129,00000120,false,Rx,1,8,01,04,84,B0,00,00,01,83
3309680075,00000125,false,Rx,1,6,00,00,00,05,01,6C,00,00
3309681163,00000165,false,Rx,1,8,01,F3,00,00,00,00,01,4C
3309685094,00000130,false,Rx,1,7,80,00,01,3D,60,02,C3,00
3309688128,00000120,false,Rx,1,8,01,04,84,B0,00,00,02,A4
3309690072,00000125,false,Rx,1,6,00,00,00,05,02,4B,00,00
3309691168,00000165,false,Rx,1,8,01,F3,00,00,00,00,02,6B
3309695098,00000130,false,Rx,1,7,80,00,01,3D,60,03,DE,00
3309698125,00000120,false,Rx,1,8,01,04,84,B0,00,00,03,B9
3309700070,00000125,false,Rx,1,6,00,00,00,05,03,56,00,00
3309701166,00000165,false,Rx,1,8,01,F3,00,00,00,00,03,76
3309705097,00000130,false,Rx,1,7,80,00,01,3F,60,04,8E,00
3309708132,00000120,false,Rx,1,8,01,04,84,B0,00,00,04,EA
3309710076,00000125,false,Rx,1,6,00,00,00,05,04,05,00,00
3309711164,00000165,false,Rx,1,8,01,F3,00,00,00,00,04,25
3309715102,00000130,false,Rx,1,7,80,00,01,3E,60,05,1C,00
3309718129,00000120,false,Rx,1,8,02,04,84,B0,00,00,05,10
3309720074,00000125,false,Rx,1,6,00,00,00,05,05,18,00,00
3309721169,00000165,false,Rx,1,8,01,F3,00,00,00,00,05,38
3309725100,00000130,false,Rx,1,7,80,00,01,3F,60,06,B4,00
3309728121,00000120,false,Rx,1,8,02,04,84,B0,00,00,06,37
3309730073,00000125,false,Rx,1,6,00,00,00,05,06,3F,00,00
3309731169,00000165,false,Rx,1,8,01,F3,00,00,00,00,06,1F
3309735100,00000130,false,Rx,1,7,80,00,01,3E,60,07,26,00
3309738126,00000120,false,Rx,1,8,02,04,84,B0,00,00,07,2A
3309740071,00000125,false,Rx,1,6,00,00,00,05,07,22,00,00
3309741174,00000165,false,Rx,1,8,01,F3,00,00,00,00,07,02
3309745097,00000130,false,Rx,1,7,80,00,01,3F,60,08,12,00
3309748124,00000120,false,Rx,1,8,02,04,84,B0,00,00,08,91
3309750069,00000125,false,Rx,1,6,00,00,00,05,08,99,00,00
3309751172,00000165,false,Rx,1,8,01,F4,00,00,00,00,08,76
3309755094,00000130,false,Rx,1,7,80,00,01,41,60,09,4E,00
3309757342,00000135,false,Rx,1,8,08,00,70,00,00,00,00,02
3309758129,00000120,false,Rx,1,8,02,04,84,B0,00,00,09,8C
3309760073,00000125,false,Rx,1,6,00,00,00,05,09,84,00,00
3309761171,00000165,false,Rx,1,8,01,F4,00,00,00,00,09,6B
3309765101,00000130,false,Rx,1,7,80,00,01,41,60,0A,69,00
3309768129,00000120,false,Rx,1,8,02,04,84,B0,00,00,0A,AB
3309770073,00000125,false,Rx,1,6,00,00,00,05,0A,A3,00,00
3309771169,00000165,false,Rx,1,8,01,F4,00,00,00,00,0A,4C
3309775100,00000130,false,Rx,1,7,80,00,01,41,60,0B,74,00
3309778126,00000120,false,Rx,1,8,02,04,84,B0,00,00,0B,B6
3309780071,00000125,false,Rx,1,6,00,00,00,05,0B,BE,00,00
3309781166,00000165,false,Rx,1,8,01,F4,00,00,00,00,0B,51
3309785098,00000130,false,Rx,1,7,80,00,01,41,60,0C,27,00
3309788125,00000120,false,Rx,1,8,02,04,84,B0,00,00,0C,E5
3309790078,00000125,false,Rx,1,6,00,00,00,05,0C,ED,00,00
3309791166,00000165,false,Rx,1,8,01,F3,00,00,00,00,0C,CD
3309795105,00000130,false,Rx,1,7,80,00,01,41,60,0D,3A,00
3309797345,00000145,false,Rx,1,8,00,00,40,05,54,00,00,00
3309798132,00000120,false,Rx,1,8,02,04,84,B0,00,00,0D,F8
3309800076,00000125,false,Rx,1,6,00,00,00,05,0D,F0,00,00
3309801174,00000165,false,Rx,1,8,01,F3,00,00,00,00,0D,D0
3309805105,00000130,false,Rx,1,7,80,00,01,41,60,0E,1D,00
3309808123,00000120,false,Rx,1,8,02,04,84,B0,00,00,0E,DF
3309810070,00000125,false,Rx,1,6,00,00,00,05,0E,D7,00,00
3309811166,00000165,false,Rx,1,8,01,F4,00,00,00,00,0E,38
3309815105,00000130,false,Rx,1,7,80,00,01,41,60,0F,00,00
3309818131,00000120,false,Rx,1,8,02,04,84,B0,00,00,0F,C2
3309820078,00000125,false,Rx,1,6,00,00,00,05,0F,CA,00,00
3309821174,00000165,false,Rx,1,8,01,F3,00,00,00,00,0F,EA
3309825104,00000130,false,Rx,1,7,80,00,01,42,60,00,37,00
3309826917,00000110,false,Rx,1,5,91,00,00,01,C9,00,00,00
3309827147,00000115,false,Rx,1,7,80,00,80,00,00,01,7E,00
3309828127,00000120,false,Rx,1,8,02,04,84,B0,00,00,00,79
3309830074,00000125,false,Rx,1,6,00,00,00,05,00,71,00,00
3309831177,00000165,false,Rx,1,8,01,F4,00,00,00,00,00,9E
3309835108,00000130,false,Rx,1,7,80,00,01,41,60,01,A6,00
3309836954,00000110,false,Rx,1,5,91,00,00,02,EE,00,00,00
3309837170,00000115,false,Rx,1,7,80,00,80,00,00,02,59,00
3309838136,00000120,false,Rx,1,8,02,04,84,B0,00,00,01,64
3309840074,00000125,false,Rx,1,6,00,00,00,05,01,6C,00,00
3309841178,00000165,false,Rx,1,8,01,F4,00,00,00,00,01,83
3309845101,00000130,false,Rx,1,7,80,00,01,41,90,02,63,00
3309846961,00000110,false,Rx,1,5,91,00,00,03,F3,00,00,00
3309847182,00000115,false,Rx,1,7,80,00,80,00,00,03,44,00
3309848125,00000120,false,Rx,1,8,02,04,84,B0,00,00,02,43
3309850074,00000125,false,Rx,1,6,00,00,00,05,02,4B,00,00
3309851175,00000165,false,Rx,1,8,01,F4,00,00,00,00,02,A4
3309855108,00000130,false,Rx,1,7,80,00,01,41,90,03,7E,00
3309856986,00000110,false,Rx,1,5,91,00,00,04,A0,00,00,00
3309857207,00000115,false,Rx,1,7,80,00,80,00,00,04,17,00
3309857461,00000135,false,Rx,1,8,08,00,70,00,00,00,00,01
3309858133,00000120,false,Rx,1,8,02,04,84,B0,00,00,03,5E
3309860076,00000125,false,Rx,1,6,00,00,00,05,03,56,00,00
3309861179,00000165,false,Rx,1,8,01,F4,00,00,00,00,03,B9
3309865103,00000130,false,Rx,1,7,80,00,01,42,90,04,A1,00
3309866995,00000110,false,Rx,1,5,91,00,00,05,BD,00,00,00
3309867216,00000115,false,Rx,1,7,80,00,80,00,00,05,0A,00
3309868135,00000120,false,Rx,1,8,02,04,84,B0,00,00,04,0D
3309870083,00000125,false,Rx,1,6,00,00,00,05,04,05,00,00
3309871177,00000165,false,Rx,1,8,01,F4,00,00,00,00,04,EA
3309875100,00000130,false,Rx,1,7,80,00,01,42,90,05,BC,00
3309877014,00000110,false,Rx,1,5,91,00,00,06,9A,00,00,00
3309877243,00000115,false,Rx,1,7,80,00,80,00,00,06,2D,00
3309878139,00000120,false,Rx,1,8,02,04,84,B0,00,00,05,10
3309880079,00000125,false,Rx,1,6,00,00,00,05,05,18,00,00
3309881183,00000165,false,Rx,1,8,01,F4,00,00,00,00,05,F7
3309885099,00000130,false,Rx,1,7,80,00,01,42,90,06,9B,00
3309887021,00000110,false,Rx,1,5,91,00,00,07,87,00,00,00
3309887250,00000115,false,Rx,1,7,80,00,80,00,00,07,30,00
3309888130,00000120,false,Rx,1,8,02,04,84,B0,00,00,06,37
3309890079,00000125,false,Rx,1,6,00,00,00,05,06,3F,00,00
3309891180,00000165,false,Rx,1,8,01,F4,00,00,00,00,06,D0
3309895111,00000130,false,Rx,1,7,80,00,01,42,90,07,86,00
3309897064,00000110,false,Rx,1,5,91,00,00,08,3C,00,00,00
3309897285,00000115,false,Rx,1,7,80,00,80,00,00,08,8B,00
3309898135,00000120,false,Rx,1,8,00,04,84,B0,00,00,07,90
3309900083,00000125,false,Rx,1,6,00,00,00,05,07,22,00,00
3309901179,00000165,false,Rx,1,8,01,F4,00,00,00,00,07,CD
3309905111,00000130,false,Rx,1,7,80,00,01,42,90,08,3D,00
3309907057,00000110,false,Rx,1,5,91,00,00,09,21,00,00,00
3309907277,00000115,false,Rx,1,7,80,00,80,00,00,09,96,00
3309908135,00000120,false,Rx,1,8,00,04,84,B0,00,00,08,2B
3309910076,00000125,false,Rx,1,6,00,00,00,05,08,99,00,00
3309911177,00000165,false,Rx,1,8,01,F4,00,00,00,00,08,76
3309915108,00000130,false,Rx,1,7,80,00,01,42,90,09,20,00
3309917087,00000110,false,Rx,1,5,91,00,00,0A,06,00,00,00
3309917308,00000115,false,Rx,1,7,80,00,80,00,00,0A,B1,00
3309918134,00000120,false,Rx,1,8,00,04,84,B0,00,00,09,36
3309920074,00000125,false,Rx,1,6,00,00,00,05,09,84,00,00
3309921177,00000165,false,Rx,1,8,01,F4,00,00,00,00,09,6B
3309925109,00000130,false,Rx,1,7,80,00,01,43,90,0A,88,00
3309927101,00000110,false,Rx,1,5,91,00,00,0B,1B,00,00,00
3309927329,00000115,false,Rx,1,7,80,00,80,00,00,0B,AC,00
3309928132,00000120,false,Rx,1,8,00,04,84,B0,00,00,0A,11
3309930074,00000125,false,Rx,1,6,00,00,00,05,0A,A3,00,00
3309931183,00000165,false,Rx,1,8,01,F3,00,00,00,00,0A,83
3309935101,00000130,false,Rx,1,7,80,00,01,42,90,0B,1A,00
3309937117,00000110,false,Rx,1,5,91,00,00,0C,48,00,00,00
3309937346,00000115,false,Rx,1,7,80,00,80,00,00,0C,FF,00
3309938134,00000120,false,Rx,1,8,00,04,84,B0,00,00,0B,0C
3309940082,00000125,false,Rx,1,6,00,00,00,05,0B,BE,00,00
3309941178,00000165,false,Rx,1,8,01,F4,00,00,00,00,0B,51
3309945102,00000130,false,Rx,1,7,80,00,01,41,90,0C,C5,00
3309947132,00000110,false,Rx,1,5,91,00,00,0D,55,00,00,00
3309947361,00000115,false,Rx,1,7,80,00,80,00,00,0D,E2,00
3309948134,00000120,false,Rx,1,8,00,04,84,B0,00,00,0C,5F
3309950082,00000125,false,Rx,1,6,00,00,00,05,0C,ED,00,00
3309951184,00000165,false,Rx,1,8,01,F4,00,00,00,00,0C,02
3309955107,00000130,false,Rx,1,7,80,00,01,42,90,0D,54,00
3309957152,00000110,false,Rx,1,5,91,00,00,0E,72,00,00,00
3309957373,00000115,false,Rx,1,7,80,00,80,00,00,0E,C5,00
3309957621,00000135,false,Rx,1,8,08,00,34,00,00,00,00,00
3309958138,00000120,false,Rx,1,8,00,04,84,B0,00,00,0D,42
3309960082,00000125,false,Rx,1,6,00,00,00,05,0D,F0,00,00
3309961177,00000165,false,Rx,1,8,01,F4,00,00,00,00,0D,1F
3309965101,00000130,false,Rx,1,7,80,00,01,42,90,0E,73,00
3309967170,00000110,false,Rx,1,5,91,00,00,0F,6F,00,00,00
3309967399,00000115,false,Rx,1,7,80,00,80,00,00,0F,D8,00
3309968133,00000120,false,Rx,1,8,00,04,84,B0,00,00,0E,65
3309970081,00000125,false,Rx,1,6,00,00,00,05,0E,D7,00,00
3309971177,00000165,false,Rx,1,8,01,F4,00,00,00,00,0E,38
3309975101,00000130,false,Rx,1,7,80,00,01,43,90,0F,E1,00
3309977178,00000110,false,Rx,1,5,91,00,00,00,D4,00,00,00
3309977407,00000115,false,Rx,1,7,80,00,80,00,00,00,63,00
3309978133,00000120,false,Rx,1,8,00,04,84,B0,00,00,0F,78
3309980081,00000125,false,Rx,1,6,00,00,00,05,0F,CA,00,00
3309981178,00000165,false,Rx,1,8,01,F4,00,00,00,00,0F,25
3309985104,00000130,false,Rx,1,7,80,00,01,42,90,00,D5,00
3309987188,00000110,false,Rx,1,5,91,00,00,01,C9,00,00,00
3309987417,00000115,false,Rx,1,7,80,00,80,00,00,01,7E,00
3309988143,00000120,false,Rx,1,8,00,04,84,B0,00,00,00,C3
3309990083,00000125,false,Rx,1,6,00,00,00,05,00,71,00,00
3309991179,00000165,false,Rx,1,8,01,F4,00,00,00,00,00,9E
3309995112,00000130,false,Rx,1,7,80,00,01,43,90,01,47,00
3309997227,00000110,false,Rx,1,5,91,00,00,02,EE,00,00,00
3309997448,00000115,false,Rx,1,7,80,00,80,00,00,02,59,00
3309998143,00000120,false,Rx,1,8,00,04,84,B0,00,00,01,DE
3310000084,00000125,false,Rx,1,6,00,00,00,05,01,6C,00,00
3310001180,00000165,false,Rx,1,8,01,F4,00,00,00,00,01,83
3310005113,00000130,false,Rx,1,7,80,00,01,42,90,02,EF,00
3310007221,00000110,false,Rx,1,5,91,00,00,03,F3,00,00,00
3310007449,00000115,false,Rx,1,7,80,00,80,00,00,03,44,00
3310008137,00000120,false,Rx,1,8,00,04,84,B0,00,00,02,F9
3310010085,00000125,false,Rx,1,6,00,00,00,05,02,4B,00,00
3310011180,00000165,false,Rx,1,8,01,F4,00,00,00,00,02,A4
3310015112,00000130,false,Rx,1,7,80,00,01,42,90,03,F2,00
3310017251,00000110,false,Rx,1,5,91,00,00,04,A0,00,00,00
3310017481,00000115,false,Rx,1,7,80,00,80,00,00,04,17,00
3310018144,00000120,false,Rx,1,8,00,04,84,B0,00,00,03,E4
3310020084,00000125,false,Rx,1,6,00,00,00,05,03,56,00,00
3310021188,00000165,false,Rx,1,8,01,F4,00,00,00,00,03,B9
3310025105,00000130,false,Rx,1,7,80,00,01,43,90,04,2E,00
3310027259,00000110,false,Rx,1,5,91,00,00,05,BD,00,00,00
3310027481,00000115,false,Rx,1,7,80,00,80,00,00,05,0A,00
3310028137,00000120,false,Rx,1,8,00,04,84,B0,00,00,04,B7
3310030085,00000125,false,Rx,1,6,00,00,00,05,04,05,00,00
3310031180,00000165,false,Rx,1,8,01,F4,00,00,00,00,04,EA
3310035112,00000130,false,Rx,1,7,80,00,01,43,90,05,33,00
3310037282,00000110,false,Rx,1,5,91,00,00,06,9A,00,00,00
3310037504,00000115,false,Rx,1,7,80,00,80,00,00,06,2D,00
3310038137,00000120,false,Rx,1,8,00,04,84,B0,00,00,05,AA
3310040085,00000125,false,Rx,1,6,00,00,00,05,05,18,00,00
3310041188,00000165,false,Rx,1,8,01,F4,00,00,00,00,05,F7
3310045104,00000130,false,Rx,1,7,80,00,01,42,90,06,9B,00
3310047290,00000110,false,Rx,1,5,91,00,00,07,87,00,00,00
3310047512,00000115,false,Rx,1,7,80,00,80,00,00,07,30,00
3310048137,00000120,false,Rx,1,8,00,04,84,B0,00,00,06,8D
3310050084,00000125,false,Rx,1,6,00,00,00,05,06,3F,00,00
3310051188,00000165,false,Rx,1,8,01,F4,00,00,00,00,06,D0
3310055105,00000130,false,Rx,1,7,80,00,01,42,90,07,86,00
3310057351,00000135,false,Rx,1,8,08,00,34,00,00,00,00,00
3310057536,00000110,false,Rx,1,5,91,00,00,08,3C,00,00,00
3310057767,00000115,false,Rx,1,7,80,00,80,00,00,08,8B,00
3310058152,00000120,false,Rx,1,8,00,04,84,B0,00,00,07,90
3310060079,00000125,false,Rx,1,6,00,00,00,05,07,22,00,00
3310061182,00000165,false,Rx,1,8,01,F4,00,00,00,00,07,CD
3310065114,00000130,false,Rx,1,7,80,00,01,42,90,08,3D,00
3310067321,00000110,false,Rx,1,5,91,00,00,09,21,00,00,00
3310067543,00000115,false,Rx,1,7,80,00,80,00,00,09,96,00
3310068145,00000120,false,Rx,1,8,00,04,84,B0,00,00,08,2B
3310070086,00000125,false,Rx,1,6,00,00,00,05,08,99,00,00
3310071182,00000165,false,Rx,1,8,01,F4,00,00,00,00,08,76
3310075113,00000130,false,Rx,1,7,80,00,01,42,90,09,20,00
3310077352,00000110,false,Rx,1,5,91,00,00,0A,06,00,00,00
3310077574,00000115,false,Rx,1,7,80,00,80,00,00,0A,B1,00
3310078146,00000120,false,Rx,1,8,00,04,84,B0,00,00,09,36
3310080086,00000125,false,Rx,1,6,00,00,00,05,09,84,00,00
3310081182,00000165,false,Rx,1,8,01,F4,00,00,00,00,09,6B
3310085105,00000130,false,Rx,1,7,80,00,01,43,90,0A,88,00
3310087352,00000110,false,Rx,1,5,91,00,00,0B,1B,00,00,00
3310087574,00000115,false,Rx,1,7,80,00,80,00,00,0B,AC,00
3310088138,00000120,false,Rx,1,8,00,04,84,B0,00,00,0A,11
3310090085,00000125,false,Rx,1,6,00,00,00,05,0A,A3,00,00
3310091181,00000165,false,Rx,1,8,01,F4,00,00,00,00,0A,4C
3310095112,00000130,false,Rx,1,7,80,00,01,43,90,0B,95,00
3310097360,00000145,false,Rx,1,8,01,00,00,00,40,00,14,00
3310097544,00000110,false,Rx,1,5,91,00,00,0C,48,00,00,00
3310097767,00000115,false,Rx,1,7,80,00,80,00,00,0C,FF,00
3310098153,00000120,false,Rx,1,8,00,04,84,B0,00,00,0B,0C
3310100087,00000125,false,Rx,1,6,00,00,00,05,0B,BE,00,00
3310101183,00000165,false,Rx,1,8,01,F4,00,00,00,00,0B,51
3310105114,00000130,false,Rx,1,7,80,00,01,42,90,0C,49,00
3310107385,00000110,false,Rx,1,5,91,00,00,0D,55,00,00,00
3310107613,00000115,false,Rx,1,7,80,00,80,00,00,0D,E2,00
3310108147,00000120,false,Rx,1,8,00,04,84,B0,00,00,0C,5F
3310110086,00000125,false,Rx,1,6,00,00,00,05,0C,ED,00,00
3310111183,00000165,false,Rx,1,8,01,F4,00,00,00,00,0C,02
3310115113,00000130,false,Rx,1,7,80,00,01,43,90,0D,DB,00
3310117415,00000110,false,Rx,1,5,91,00,00,0E,72,00,00,00
3310117635,00000115,false,Rx,1,7,80,00,80,00,00,0E,C5,00
3310118146,00000120,false,Rx,1,8,00,04,84,B0,00,00,0D,42
3310120094,00000125,false,Rx,1,6,00,00,00,05,0D,F0,00,00
3310121191,00000165,false,Rx,1,8,01,F4,00,00,00,00,0D,1F
3310125113,00000130,false,Rx,1,7,80,00,01,43,90,0E,FC,00
3310127423,00000110,false,Rx,1,5,91,00,00,0F,6F,00,00,00
3310127651,00000115,false,Rx,1,7,80,00,80,00,00,0F,D8,00
3310128146,00000120,false,Rx,1,8,00,04,84,B0,00,00,0E,65
3310130086,00000125,false,Rx,1,6,00,00,00,05,0E,D7,00,00
3310131191,00000165,false,Rx,1,8,01,F4,00,00,00,00,0E,38
3310135113,00000130,false,Rx,1,7,80,00,01,43,90,0F,E1,00
3310137462,00000110,false,Rx,1,5,91,00,00,00,D4,00,00,00
3310137690,00000115,false,Rx,1,7,80,00,80,00,00,00,63,00
3310138147,00000120,false,Rx,1,8,00,04,84,B0,00,00,0F,78
3310140085,00000125,false,Rx,1,6,00,00,00,05,0F,CA,00,00
3310141182,00000165,false,Rx,1,8,01,F4,00,00,00,00,0F,25
3310145113,00000130,false,Rx,1,7,80,00,01,42,90,00,D5,00
3310147454,00000110,false,Rx,1,5,91,00,00,01,C9,00,00,00
3310147682,00000115,false,Rx,1,7,80,00,80,00,00,01,7E,00
3310148146,00000120,false,Rx,1,8,00,04,84,B0,00,00,00,C3
3310150093,00000125,false,Rx,1,6,00,00,00,05,00,71,00,00
3310151190,00000165,false,Rx,1,8,01,F4,00,00,00,00,00,9E
3310155112,00000130,false,Rx,1,7,80,00,01,43,90,01,47,00
3310157352,00000135,false,Rx,1,8,08,00,34,00,00,00,00,00
3310157543,00000110,false,Rx,1,5,91,00,00,02,EE,00,00,00
3310157759,00000115,false,Rx,1,7,80,00,80,00,00,02,59,00
3310158161,00000120,false,Rx,1,8,00,04,84,B0,00,00,01,DE
3310160102,00000125,false,Rx,1,6,00,00,00,05,01,6C,00,00
3310161206,00000165,false,Rx,1,8,01,F4,00,00,00,00,01,83
3310165121,00000130,false,Rx,1,7,80,00,01,43,90,02,60,00
3310167493,00000110,false,Rx,1,5,91,00,00,03,F3,00,00,00
3310167715,00000115,false,Rx,1,7,80,00,80,00,00,03,44,00
3310168155,00000120,false,Rx,1,8,00,04,84,B0,00,00,02,F9
3310170102,00000125,false,Rx,1,6,00,00,00,05,02,4B,00,00
3310171199,00000165,false,Rx,1,8,01,F4,00,00,00,00,02,A4
3310175128,00000130,false,Rx,1,7,80,00,01,43,90,03,7D,00
3310177531,00000110,false,Rx,1,5,91,00,00,04,A0,00,00,00
3310177754,00000115,false,Rx,1,7,80,00,80,00,00,04,17,00
3310178163,00000120,false,Rx,1,8,00,04,84,B0,00,00,03,E4
3310180096,00000125,false,Rx,1,6,00,00,00,05,03,56,00,00
3310181200,00000165,false,Rx,1,8,01,F4,00,00,00,00,03,B9
3310185122,00000130,false,Rx,1,7,80,00,01,42,90,04,A1,00
3310187525,00000110,false,Rx,1,5,91,00,00,05,BD,00,00,00
3310187747,00000115,false,Rx,1,7,80,00,80,00,00,05,0A,00
3310188156,00000120,false,Rx,1,8,00,04,84,B0,00,00,04,B7
3310190103,00000125,false,Rx,1,6,00,00,00,05,04,05,00,00
3310191200,00000165,false,Rx,1,8,01,F4,00,00,00,00,04,EA
3310195137,00000130,false,Rx,1,7,80,00,01,43,90,05,33,00
3310197556,00000110,false,Rx,1,5,91,00,00,06,9A,00,00,00
3310197778,00000115,false,Rx,1,7,80,00,80,00,00,06,2D,00
3310198172,00000120,false,Rx,1,8,00,04,84,B0,00,00,05,AA
3310200103,00000125,false,Rx,1,6,00,00,00,05,05,18,00,00
3310201200,00000165,false,Rx,1,8,01,F4,00,00,00,00,05,F7
3310205129,00000130,false,Rx,1,7,80,00,01,43,90,06,14,00
3310207556,00000110,false,Rx,1,5,91,00,00,07,87,00,00,00
3310207778,00000115,false,Rx,1,7,80,00,80,00,00,07,30,00
3310208171,00000120,false,Rx,1,8,00,04,84,B0,00,00,06,8D
3310210103,00000125,false,Rx,1,6,00,00,00,05,06,3F,00,00
3310211200,00000165,false,Rx,1,8,01,F4,00,00,00,00,06,D0
3310215129,00000130,false,Rx,1,7,80,00,01,42,90,07,86,00
3310217586,00000110,false,Rx,1,5,91,00,00,08,3C,00,00,00
3310217808,00000115,false,Rx,1,7,80,00,80,00,00,08,8B,00
3310218171,00000120,false,Rx,1,8,00,04,84,B0,00,00,07,90
3310220103,00000125,false,Rx,1,6,00,00,00,05,07,22,00,00
3310221200,00000165,false,Rx,1,8,01,F4,00,00,00,00,07,CD
3310225136,00000130,false,Rx,1,7,80,00,01,44,90,08,38,00
3310227587,00000110,false,Rx,1,5,91,00,00,09,21,00,00,00
3310227809,00000115,false,Rx,1,7,80,00,80,00,00,09,96,00
3310228164,00000120,false,Rx,1,8,00,04,84,B0,00,00,08,2B
3310230103,00000125,false,Rx,1,6,00,00,00,05,08,99,00,00
3310231200,00000165,false,Rx,1,8,01,F4,00,00,00,00,08,76
3310235129,00000130,false,Rx,1,7,80,00,01,42,90,09,20,00
3310237618,00000110,false,Rx,1,5,91,00,00,0A,06,00,00,00
3310237840,00000115,false,Rx,1,7,80,00,80,00,00,0A,B1,00
3310238172,00000120,false,Rx,1,8,00,04,84,B0,00,00,09,36
3310240103,00000125,false,Rx,1,6,00,00,00,05,09,84,00,00
3310241208,00000165,false,Rx,1,8,01,F4,00,00,00,00,09,6B
3310245121,00000130,false,Rx,1,7,80,00,01,43,90,0A,88,00
3310247617,00000110,false,Rx,1,5,91,00,00,0B,1B,00,00,00
3310247839,00000115,false,Rx,1,7,80,00,80,00,00,0B,AC,00
3310248171,00000120,false,Rx,1,8,00,04,84,B0,00,00,0A,11
3310250102,00000125,false,Rx,1,6,00,00,00,05,0A,A3,00,00
3310251199,00000165,false,Rx,1,8,01,F4,00,00,00,00,0A,4C
3310255128,00000130,false,Rx,1,7,80,00,01,44,90,0B,1F,00
3310257368,00000135,false,Rx,1,8,08,00,34,00,00,00,00,00
3310257643,00000110,false,Rx,1,5,91,00,00,0C,48,00,00,00
3310257876,00000115,false,Rx,1,7,80,00,80,00,00,0C,FF,00
3310258169,00000120,false,Rx,1,8,00,04,84,B0,00,00,0B,0C
3310260102,00000125,false,Rx,1,6,00,00,00,05,0B,BE,00,00
3310261199,00000165,false,Rx,1,8,01,F4,00,00,00,00,0B,51
3310265129,00000130,false,Rx,1,7,80,00,01,42,90,0C,49,00
3310267656,00000110,false,Rx,1,5,91,00,00,0D,55,00,00,00
3310267872,00000115,false,Rx,1,7,80,00,80,00,00,0D,E2,00
3310268172,00000120,false,Rx,1,8,00,04,84,B0,00,00,0C,5F
3310270103,00000125,false,Rx,1,6,00,00,00,05,0C,ED,00,00
3310271200,00000165,false,Rx,1,8,01,F4,00,00,00,00,0C,02
3310275129,00000130,false,Rx,1,7,80,00,01,42,90,0D,54,00
3310277680,00000110,false,Rx,1,5,91,00,00,0E,72,00,00,00
3310277903,00000115,false,Rx,1,7,80,00,80,00,00,0E,C5,00
3310278172,00000120,false,Rx,1,8,00,04,84,B0,00,00,0D,42
3310280104,00000125,false,Rx,1,6,00,00,00,05,0D,F0,00,00
3310281201,00000165,false,Rx,1,8,01,F4,00,00,00,00,0D,1F
3310285128,00000130,false,Rx,1,7,80,00,01,43,90,0E,FC,00
3310287688,00000110,false,Rx,1,5,91,00,00,0F,6F,00,00,00
3310287912,00000115,false,Rx,1,7,80,00,80,00,00,0F,D8,00
3310288166,00000120,false,Rx,1,8,00,04,84,B0,00,00,0E,65
3310290105,00000125,false,Rx,1,6,00,00,00,05,0E,D7,00,00
3310291202,00000165,false,Rx,1,8,01,F4,00,00,00,00,0E,38
3310295132,00000130,false,Rx,1,7,80,00,01,43,90,0F,E1,00
3310297716,00000110,false,Rx,1,5,91,00,00,00,D4,00,00,00
3310297946,00000115,false,Rx,1,7,80,00,80,00,00,00,63,00
3310298184,00000120,false,Rx,1,8,00,04,84,B0,00,00,0F,78
3310300101,00000125,false,Rx,1,6,00,00,00,05,0F,CA,00,00
3310301197,00000165,false,Rx,1,8,01,F4,00,00,00,00,0F,25
3310305132,00000130,false,Rx,1,7,80,00,01,42,90,00,D5,00
3310307716,00000110,false,Rx,1,5,91,00,00,01,C9,00,00,00
3310307946,00000115,false,Rx,1,7,80,00,80,00,00,01,7E,00
3310308184,00000120,false,Rx,1,8,00,04,84,B0,00,00,00,C3
3310310110,00000125,false,Rx,1,6,00,00,00,05,00,71,00,00
3310311206,00000165,false,Rx,1,8,01,F4,00,00,00,00,00,9E
3310315135,00000130,false,Rx,1,7,80,00,01,44,90,01,CD,00
3310317742,00000110,false,Rx,1,5,91,00,00,02,EE,00,00,00
3310317964,00000115,false,Rx,1,7,80,00,80,00,00,02,59,00
3310318210,00000120,false,Rx,1,8,00,04,84,B0,00,00,01,DE
3310320105,00000125,false,Rx,1,6,00,00,00,05,01,6C,00,00
3310321209,00000165,false,Rx,1,8,01,F4,00,00,00,00,01,83
3310325137,00000130,false,Rx,1,7,80,00,01,42,90,02,EF,00
3310327752,00000110,false,Rx,1,5,91,00,00,03,F3,00,00,00
3310327981,00000115,false,Rx,1,7,80,00,80,00,00,03,44,00
3310328219,00000120,false,Rx,1,8,00,04,84,B0,00,00,02,F9
3310330106,00000125,false,Rx,1,6,00,00,00,05,02,4B,00,00
3310331202,00000165,false,Rx,1,8,01,F4,00,00,00,00,02,A4
3310335138,00000130,false,Rx,1,7,80,00,01,43,90,03,7D,00
3310337776,00000110,false,Rx,1,5,91,00,00,04,A0,00,00,00
3310338005,00000115,false,Rx,1,7,80,00,80,00,00,04,17,00
3310338251,00000120,false,Rx,1,8,00,04,84,B0,00,00,03,E4
3310340107,00000125,false,Rx,1,6,00,00,00,85,03,9F,00,00
3310341202,00000165,false,Rx,1,8,01,F4,00,00,00,00,03,B9
3310345130,00000130,false,Rx,1,7,80,00,01,44,90,04,A4,00
3310347799,00000110,false,Rx,1,5,91,00,00,05,BD,00,00,00
3310348020,00000115,false,Rx,1,7,80,00,80,00,00,05,0A,00
3310348266,00000120,false,Rx,1,8,00,04,84,B0,00,00,04,B7
3310350106,00000125,false,Rx,1,6,00,00,00,85,04,CC,00,00
3310351210,00000165,false,Rx,1,8,01,F4,00,00,00,00,04,EA
3310355130,00000130,false,Rx,1,7,80,00,01,43,90,05,33,00
3310357369,00000135,false,Rx,1,8,08,00,34,00,00,00,00,00
3310357809,00000110,false,Rx,1,5,91,00,00,06,9A,00,00,00
3310358032,00000115,false,Rx,1,7,80,00,80,00,00,06,2D,00
3310358278,00000120,false,Rx,1,8,00,04,84,B0,00,00,05,AA
3310360104,00000125,false,Rx,1,6,00,00,00,85,05,D1,00,00
3310361208,00000165,false,Rx,1,8,01,F4,00,00,00,00,05,F7
3310365130,00000130,false,Rx,1,7,80,00,01,44,90,06,9E,00
3310367831,00000110,false,Rx,1,5,91,00,00,07,87,00,00,00
3310368059,00000115,false,Rx,1,7,80,00,80,00,00,07,30,00
3310368298,00000120,false,Rx,1,8,00,04,84,B0,00,00,06,8D
3310370107,00000125,false,Rx,1,6,00,00,00,85,06,F6,00,00
3310371203,00000165,false,Rx,1,8,01,F4,00,00,00,00,06,D0
3310375130,00000130,false,Rx,1,7,80,00,01,44,90,07,83,00
3310377846,00000110,false,Rx,1,5,91,00,00,08,3C,00,00,00
3310378074,00000115,false,Rx,1,7,80,00,80,00,00,08,8B,00
3310378313,00000120,false,Rx,1,8,00,04,84,B0,00,00,07,90
3310380106,00000125,false,Rx,1,6,00,00,00,85,07,EB,00,00
3310381210,00000165,false,Rx,1,8,01,F4,00,00,00,00,07,CD
3310385138,00000130,false,Rx,1,7,80,00,01,44,90,08,38,00
3310387863,00000110,false,Rx,1,5,91,00,00,09,21,00,00,00
3310388084,00000115,false,Rx,1,7,80,00,80,00,00,09,96,00
3310388330,00000120,false,Rx,1,8,00,04,84,B0,00,00,08,2B
3310390103,00000125,false,Rx,1,6,00,00,00,85,08,50,00,00
3310391206,00000165,false,Rx,1,8,01,F4,00,00,00,00,08,76
3310395139,00000130,false,Rx,1,7,80,00,01,44,90,09,25,00
3310397365,00000145,false,Rx,1,8,02,15,11,55,F5,FF,FF,15
3310397890,00000110,false,Rx,1,5,91,00,00,0A,06,00,00,00
3310398113,00000115,false,Rx,1,7,80,00,80,00,00,0A,B1,00
3310398351,00000120,false,Rx,1,8,00,04,84,B0,00,00,09,36
3310400100,00000125,false,Rx,1,6,00,00,00,85,09,4D,00,00
3310401204,00000165,false,Rx,1,8,01,F4,00,00,00,00,09,6B
3310405134,00000130,false,Rx,1,7,80,00,01,44,90,0A,02,00
3310407882,00000110,false,Rx,1,5,91,00,00,0B,1B,00,00,00
3310408102,00000115,false,Rx,1,7,80,00,80,00,00,0B,AC,00
3310408341,00000120,false,Rx,1,8,00,04,84,B0,00,00,0A,11
3310410105,00000125,false,Rx,1,6,00,00,00,85,0A,6A,00,00
3310411201,00000165,false,Rx,1,8,01,F4,00,00,00,00,0A,4C
3310415150,00000130,false,Rx,1,7,80,00,01,44,90,0B,1F,00
3310417914,00000110,false,Rx,1,5,91,00,00,0C,48,00,00,00
3310418143,00000115,false,Rx,1,7,80,00,80,00,00,0C,FF,00
3310418382,00000120,false,Rx,1,8,00,04,84,B0,00,00,0B,0C
3310420114,00000125,false,Rx,1,6,00,00,00,85,0B,77,00,00
3310421211,00000165,false,Rx,1,8,01,F4,00,00,00,00,0B,51
3310425146,00000130,false,Rx,1,7,80,00,01,44,90,0C,4C,00
3310427920,00000110,false,Rx,1,5,91,00,00,0D,55,00,00,00
3310428141,00000115,false,Rx,1,7,80,00,80,00,00,0D,E2,00
3310428381,00000120,false,Rx,1,8,00,04,84,B0,00,00,0C,5F
3310430119,00000125,false,Rx,1,6,00,00,00,85,0C,24,00,00
3310431215,00000165,false,Rx,1,8,01,F4,00,00,00,00,0C,02
3310435142,00000130,false,Rx,1,7,80,00,01,43,90,0D,DB,00
3310437943,00000110,false,Rx,1,5,91,00,00,0E,72,00,00,00
3310438172,00000115,false,Rx,1,7,80,00,80,00,00,0E,C5,00
3310438412,00000120,false,Rx,1,8,00,04,84,B0,00,00,0D,42
3310440113,00000125,false,Rx,1,6,00,00,00,85,0D,39,00,00
3310441217,00000165,false,Rx,1,8,01,F4,00,00,00,00,0D,1F
3310445143,00000130,false,Rx,1,7,80,00,01,44,90,0E,76,00
3310447953,00000110,false,Rx,1,5,91,00,00,0F,6F,00,00,00
3310448181,00000115,false,Rx,1,7,80,00,80,00,00,0F,D8,00
3310448421,00000120,false,Rx,1,8,00,04,84,B0,00,00,0E,65
3310450121,00000125,false,Rx,1,6,00,00,00,85,0E,1E,00,00
3310451217,00000165,false,Rx,1,8,01,F4,00,00,00,00,0E,38
3310455145,00000130,false,Rx,1,7,80,00,01,44,90,0F,6B,00
3310457385,00000135,false,Rx,1,8,08,00,34,00,00,00,00,00
3310457979,00000110,false,Rx,1,5,91,00,00,00,D4,00,00,00
3310458201,00000115,false,Rx,1,7,80,00,80,00,00,00,63,00
3310458441,00000120,false,Rx,1,8,00,04,84,B0,00,00,0F,78
3310460120,00000125,false,Rx,1,6,00,00,00,85,0F,03,00,00
3310461216,00000165,false,Rx,1,8,01,F4,00,00,00,00,0F,25
3310465146,00000130,false,Rx,1,7,80,00,01,44,90,00,D0,00
3310467982,00000110,false,Rx,1,5,91,00,00,01,C9,00,00,00
3310468210,00000115,false,Rx,1,7,80,00,80,00,00,01,7E,00
3310468450,00000120,false,Rx,1,8,00,04,84,B0,00,00,00,C3
3310470119,00000125,false,Rx,1,6,00,00,00,85,00,B8,00,00
3310471215,00000165,false,Rx,1,8,01,F4,00,00,00,00,00,9E
3310475142,00000130,false,Rx,1,7,80,00,01,44,90,01,CD,00
3310478013,00000110,false,Rx,1,5,91,00,00,02,EE,00,00,00
3310478234,00000115,false,Rx,1,7,80,00,80,00,00,02,59,00
3310478474,00000120,false,Rx,1,8,00,04,84,B0,00,00,01,DE
3310480113,00000125,false,Rx,1,6,00,00,00,85,01,A5,00,00
3310481224,00000165,false,Rx,1,8,01,F4,00,00,00,00,01,83
3310485143,00000130,false,Rx,1,7,80,00,01,44,90,02,EA,00
3310488015,00000110,false,Rx,1,5,91,00,00,03,F3,00,00,00
3310488244,00000115,false,Rx,1,7,80,00,80,00,00,03,44,00
3310488483,00000120,false,Rx,1,8,00,04,84,B0,00,00,02,F9
3310490122,00000125,false,Rx,1,6,00,00,00,85,02,82,00,00
3310491218,00000165,false,Rx,1,8,01,F4,00,00,00,00,02,A4
3310495159,00000130,false,Rx,1,7,80,00,01,44,90,03,F7,00
3310497392,00000185,false,Rx,1,8,FF,00,00,00,00,00,00,00
3310498056,00000110,false,Rx,1,5,91,00,00,04,A0,00,00,00
3310498279,00000115,false,Rx,1,7,80,00,80,00,00,04,17,00
3310498526,00000120,false,Rx,1,8,00,04,84,B0,00,00,03,E4
3310500120,00000125,false,Rx,1,6,00,00,00,85,03,9F,00,00
3310501216,00000165,false,Rx,1,8,01,F4,00,00,00,00,03,B9
3310505146,00000130,false,Rx,1,7,80,00,01,44,90,04,A4,00
3310508050,00000110,false,Rx,1,5,91,00,00,05,BD,00,00,00
3310508272,00000115,false,Rx,1,7,80,00,80,00,00,05,0A,00
3310508518,00000120,false,Rx,1,8,00,04,84,B0,00,00,04,B7
3310510117,00000125,false,Rx,1,6,00,00,00,85,04,CC,00,00
3310511221,00000165,false,Rx,1,8,01,F4,00,00,00,00,04,EA
3310515147,00000130,false,Rx,1,7,80,00,01,44,90,05,B9,00
3310518073,00000110,false,Rx,1,5,91,00,00,06,9A,00,00,00
3310518302,00000115,false,Rx,1,7,80,00,80,00,00,06,2D,00
3310518541,00000120,false,Rx,1,8,00,04,84,B0,00,00,05,AA
3310520118,00000125,false,Rx,1,6,00,00,00,85,05,D1,00,00
3310521221,00000165,false,Rx,1,8,01,F4,00,00,00,00,05,F7
3310525148,00000130,false,Rx,1,7,80,00,01,44,90,06,9E,00
3310528081,00000110,false,Rx,1,5,91,00,00,07,87,00,00,00
3310528311,00000115,false,Rx,1,7,80,00,80,00,00,07,30,00
3310528549,00000120,false,Rx,1,8,00,04,84,B0,00,00,06,8D
3310530126,00000125,false,Rx,1,6,00,00,00,85,06,F6,00,00
3310531222,00000165,false,Rx,1,8,01,F4,00,00,00,00,06,D0
3310535150,00000130,false,Rx,1,7,80,00,01,44,90,07,83,00
3310538113,00000110,false,Rx,1,5,91,00,00,08,3C,00,00,00
3310538335,00000115,false,Rx,1,7,80,00,80,00,00,08,8B,00
3310538581,00000120,false,Rx,1,8,00,04,84,B0,00,00,07,90
3310540128,00000125,false,Rx,1,6,00,00,00,85,07,EB,00,00
3310541219,00000165,false,Rx,1,8,01,F4,00,00,00,00,07,CD
3310545150,00000130,false,Rx,1,7,80,00,01,44,90,08,38,00
3310548114,00000110,false,Rx,1,5,91,00,00,09,21,00,00,00
3310548337,00000115,false,Rx,1,7,80,00,80,00,00,09,96,00
3310548583,00000120,false,Rx,1,8,00,04,84,B0,00,00,08,2B
3310550121,00000125,false,Rx,1,6,00,00,00,85,08,50,00,00
3310551219,00000165,false,Rx,1,8,01,F4,00,00,00,00,08,76
3310555144,00000130,false,Rx,1,7,80,00,01,44,90,09,25,00
3310557392,00000135,false,Rx,1,8,08,00,34,00,00,00,00,00
3310558179,00000120,false,Rx,1,8,00,04,84,B0,00,00,09,36
3310558364,00000110,false,Rx,1,5,91,00,00,0A,06,00,00,00
3310558586,00000115,false,Rx,1,7,80,00,80,00,00,0A,B1,00
3310560126,00000125,false,Rx,1,6,00,00,00,85,09,4D,00,00
3310561223,00000165,false,Rx,1,8,01,F4,00,00,00,00,09,6B
3310565146,00000130,false,Rx,1,7,80,00,01,44,90,0A,02,00
3310568173,00000120,false,Rx,1,8,00,04,84,B0,00,00,0A,11
3310568356,00000110,false,Rx,1,5,91,00,00,0B,1B,00,00,00
3310568579,00000115,false,Rx,1,7,80,00,80,00,00,0B,AC,00
3310570116,00000125,false,Rx,1,6,00,00,00,85,0A,6A,00,00
3310571223,00000165,false,Rx,1,8,01,F4,00,00,00,00,0A,4C
3310575146,00000130,false,Rx,1,7,80,00,01,44,90,0B,1F,00
3310578180,00000120,false,Rx,1,8,00,04,84,B0,00,00,0B,0C
3310578364,00000110,false,Rx,1,5,91,00,00,0C,48,00,00,00
3310578594,00000115,false,Rx,1,7,80,00,80,00,00,0C,FF,00
3310580124,00000125,false,Rx,1,6,00,00,00,85,0B,77,00,00
3310581215,00000165,false,Rx,1,8,01,F4,00,00,00,00,0B,51
3310585146,00000130,false,Rx,1,7,80,00,01,44,90,0C,4C,00
3310588181,00000120,false,Rx,1,8,00,04,84,B0,00,00,0C,5F
3310588364,00000110,false,Rx,1,5,91,00,00,0D,55,00,00,00
3310588586,00000115,false,Rx,1,7,80,00,80,00,00,0D,E2,00
3310590124,00000125,false,Rx,1,6,00,00,00,85,0C,24,00,00
3310591223,00000165,false,Rx,1,8,01,F4,00,00,00,00,0C,02
3310595154,00000130,false,Rx,1,7,80,00,01,44,90,0D,51,00
3310598180,00000120,false,Rx,1,8,00,04,84,B0,00,00,0D,42
3310598364,00000110,false,Rx,1,5,91,00,00,0E,72,00,00,00
3310598586,00000115,false,Rx,1,7,80,00,80,00,00,0E,C5,00
3310600116,00000125,false,Rx,1,6,00,00,00,85,0D,39,00,00
3310601223,00000165,false,Rx,1,8,01,F4,00,00,00,00,0D,1F
3310605154,00000130,false,Rx,1,7,80,00,01,44,90,0E,76,00
3310608173,00000120,false,Rx,1,8,00,04,84,B0,00,00,0E,65
3310608364,00000110,false,Rx,1,5,91,00,00,0F,6F,00,00,00
3310608587,00000115,false,Rx,1,7,80,00,80,00,00,0F,D8,00
3310610125,00000125,false,Rx,1,6,00,00,00,85,0E,1E,00,00
3310611224,00000165,false,Rx,1,8,01,F4,00,00,00,00,0E,38
3310615154,00000130,false,Rx,1,7,80,00,01,44,90,0F,6B,00
3310618180,00000120,false,Rx,1,8,00,04,84,B0,00,00,0F,78
3310618363,00000110,false,Rx,1,5,91,00,00,00,D4,00,00,00
3310618594,00000115,false,Rx,1,7,80,00,80,00,00,00,63,00
3310620124,00000125,false,Rx,1,6,00,00,00,85,0F,03,00,00
3310621223,00000165,false,Rx,1,8,01,F4,00,00,00,00,0F,25
3310625153,00000130,false,Rx,1,7,80,00,01,45,90,00,5F,00
3310628180,00000120,false,Rx,1,8,00,04,84,B0,00,00,00,C3
3310628363,00000110,false,Rx,1,5,91,00,00,01,C9,00,00,00
3310628594,00000115,false,Rx,1,7,80,00,80,00,00,01,7E,00
3310630124,00000125,false,Rx,1,6,00,00,00,85,00,B8,00,00
3310631223,00000165,false,Rx,1,8,01,F4,00,00,00,00,00,9E
3310635154,00000130,false,Rx,1,7,80,00,01,44,90,01,CD,00
3310638180,00000120,false,Rx,1,8,00,04,84,B0,00,00,01,DE
3310638364,00000110,false,Rx,1,5,91,00,00,02,EE,00,00,00
3310638586,00000115,false,Rx,1,7,80,00,80,00,00,02,59,00
3310640124,00000125,false,Rx,1,6,00,00,00,85,01,A5,00,00
3310641223,00000165,false,Rx,1,8,01,F4,00,00,00,00,01,83
3310645154,00000130,false,Rx,1,7,80,00,01,44,90,02,EA,00
3310648188,00000120,false,Rx,1,8,00,04,84,B0,00,00,02,F9
3310648371,00000110,false,Rx,1,5,91,00,00,03,F3,00,00,00
3310648594,00000115,false,Rx,1,7,80,00,80,00,00,03,44,00
3310650124,00000125,false,Rx,1,6,00,00,00,85,02,82,00,00
3310651223,00000165,false,Rx,1,8,01,F4,00,00,00,00,02,A4
3310655152,00000130,false,Rx,1,7,80,00,01,44,90,03,F7,00
3310657392,00000135,false,Rx,1,8,08,00,34,00,00,00,00,00
3310658186,00000120,false,Rx,1,8,00,04,84,B0,00,00,03,E4
3310658371,00000110,false,Rx,1,5,91,00,00,04,A0,00,00,00
3310658601,00000115,false,Rx,1,7,80,00,80,00,00,04,17,00
3310660126,00000125,false,Rx,1,6,00,00,00,85,03,9F,00,00
3310661223,00000165,false,Rx,1,8,01,F4,00,00,00,00,03,B9
3310665146,00000130,false,Rx,1,7,80,00,01,44,90,04,A4,00
3310668188,00000120,false,Rx,1,8,00,04,84,B0,00,00,04,B7
3310668371,00000110,false,Rx,1,5,91,00,00,05,BD,00,00,00
3310668594,00000115,false,Rx,1,7,80,00,80,00,00,05,0A,00
3310670131,00000125,false,Rx,1,6,00,00,00,85,04,CC,00,00
3310671223,00000165,false,Rx,1,8,01,F4,00,00,00,00,04,EA
3310675145,00000130,false,Rx,1,7,80,00,01,44,90,05,B9,00
3310678187,00000120,false,Rx,1,8,00,04,84,B0,00,00,05,AA
3310678370,00000110,false,Rx,1,5,91,00,00,06,9A,00,00,00
3310678593,00000115,false,Rx,1,7,80,00,80,00,00,06,2D,00
3310680124,00000125,false,Rx,1,6,00,00,00,85,05,D1,00,00
3310681231,00000165,false,Rx,1,8,01,F4,00,00,00,00,05,F7
3310685154,00000130,false,Rx,1,7,80,00,01,44,90,06,9E,00
3310688180,00000120,false,Rx,1,8,00,04,84,B0,00,00,06,8D
3310688364,00000110,false,Rx,1,5,91,00,00,07,87,00,00,00
3310688594,00000115,false,Rx,1,7,80,00,80,00,00,07,30,00
3310690124,00000125,false,Rx,1,6,00,00,00,85,06,F6,00,00
3310691231,00000165,false,Rx,1,8,01,F4,00,00,00,00,06,D0
3310695162,00000130,false,Rx,1,7,80,00,01,44,90,07,83,00
3310697386,00000145,false,Rx,1,8,03,55,15,15,55,FF,FF,FF
3310698189,00000120,false,Rx,1,8,00,04,84,B0,00,00,07,90
3310698389,00000110,false,Rx,1,5,91,00,00,08,3C,00,00,00
3310698612,00000115,false,Rx,1,7,80,00,80,00,00,08,8B,00
3310700129,00000125,false,Rx,1,6,00,00,00,85,07,EB,00,00
3310701226,00000165,false,Rx,1,8,01,F4,00,00,00,00,07,CD
3310705156,00000130,false,Rx,1,7,80,00,01,44,90,08,38,00
3310708182,00000120,false,Rx,1,8,00,04,84,B0,00,00,08,2B
3310708381,00000110,false,Rx,1,5,91,00,00,09,21,00,00,00
3310708604,00000115,false,Rx,1,7,80,00,80,00,00,09,96,00
3310710127,00000125,false,Rx,1,6,00,00,00,85,08,50,00,00
3310711226,00000165,false,Rx,1,8,01,F4,00,00,00,00,08,76
3310715156,00000130,false,Rx,1,7,80,00,01,44,90,09,25,00
3310718183,00000120,false,Rx,1,8,00,04,84,B0,00,00,09,36
3310718412,00000110,false,Rx,1,5,91,00,00,0A,06,00,00,00
3310718635,00000115,false,Rx,1,7,80,00,80,00,00,0A,B1,00
3310720126,00000125,false,Rx,1,6,00,00,00,85,09,4D,00,00
3310721225,00000165,false,Rx,1,8,01,F4,00,00,00,00,09,6B
3310725155,00000130,false,Rx,1,7,80,00,01,44,90,0A,02,00
3310728183,00000120,false,Rx,1,8,00,04,84,B0,00,00,0A,11
3310728420,00000110,false,Rx,1,5,91,00,00,0B,1B,00,00,00
3310728644,00000115,false,Rx,1,7,80,00,80,00,00,0B,AC,00
3310730126,00000125,false,Rx,1,6,00,00,00,85,0A,6A,00,00
3310731225,00000165,false,Rx,1,8,01,F4,00,00,00,00,0A,4C
3310735155,00000130,false,Rx,1,7,80,00,01,44,90,0B,1F,00
3310738182,00000120,false,Rx,1,8,00,04,84,B0,00,00,0B,0C
3310738442,00000110,false,Rx,1,5,91,00,00,0C,48,00,00,00
3310738666,00000115,false,Rx,1,7,80,00,80,00,00,0C,FF,00
3310740126,00000125,false,Rx,1,6,00,00,00,85,0B,77,00,00
3310741225,00000165,false,Rx,1,8,01,F4,00,00,00,00,0B,51
3310745155,00000130,false,Rx,1,7,80,00,01,44,90,0C,4C,00
3310748183,00000120,false,Rx,1,8,00,04,84,B0,00,00,0C,5F
3310748451,00000110,false,Rx,1,5,91,00,00,0D,55,00,00,00
3310748675,00000115,false,Rx,1,7,80,00,80,00,00,0D,E2,00
3310750126,00000125,false,Rx,1,6,00,00,00,85,0C,24,00,00
3310751225,00000165,false,Rx,1,8,01,F4,00,00,00,00,0C,02
3310755155,00000130,false,Rx,1,7,80,00,01,44,90,0D,51,00
3310757396,00000135,false,Rx,1,8,08,00,34,00,00,00,00,00
3310758191,00000120,false,Rx,1,8,00,04,84,B0,00,00,0D,42
3310758475,00000110,false,Rx,1,5,91,00,00,0E,72,00,00,00
3310758699,00000115,false,Rx,1,7,80,00,80,00,00,0E,C5,00
3310760122,00000125,false,Rx,1,6,00,00,00,85,0D,39,00,00
3310761228,00000165,false,Rx,1,8,01,F4,00,00,00,00,0D,1F
3310765150,00000130,false,Rx,1,7,80,00,01,44,90,0E,76,00
3310768186,00000120,false,Rx,1,8,00,04,84,B0,00,00,0E,65
3310768500,00000110,false,Rx,1,5,91,00,00,0F,6F,00,00,00
3310768726,00000115,false,Rx,1,7,80,00,80,00,00,0F,D8,00
3310770125,00000125,false,Rx,1,6,00,00,00,85,0E,1E,00,00
3310771223,00000165,false,Rx,1,8,01,F4,00,00,00,00,0E,38
3310775153,00000130,false,Rx,1,7,80,00,01,44,90,0F,6B,00
3310778187,00000120,false,Rx,1,8,00,04,84,B0,00,00,0F,78
3310778509,00000110,false,Rx,1,5,91,00,00,00,D4,00,00,00
3310778734,00000115,false,Rx,1,7,80,00,80,00,00,00,63,00
3310780133,00000125,false,Rx,1,6,00,00,00,85,0F,03,00,00
3310781223,00000165,false,Rx,1,8,01,F4,00,00,00,00,0F,25
3310785153,00000130,false,Rx,1,7,80,00,01,44,90,00,D0,00
3310788187,00000120,false,Rx,1,8,00,04,84,B0,00,00,00,C3
3310788524,00000110,false,Rx,1,5,91,00,00,01,C9,00,00,00
3310788757,00000115,false,Rx,1,7,80,00,80,00,00,01,7E,00
3310790125,00000125,false,Rx,1,6,00,00,00,85,00,B8,00,00
3310791230,00000165,false,Rx,1,8,01,F4,00,00,00,00,00,9E
3310795168,00000130,false,Rx,1,7,80,00,01,44,90,01,CD,00
3310798187,00000120,false,Rx,1,8,00,04,84,B0,00,00,01,DE
3310798549,00000110,false,Rx,1,5,91,00,00,02,EE,00,00,00
3310798772,00000115,false,Rx,1,7,80,00,80,00,00,02,59,00
3310800132,00000125,false,Rx,1,6,00,00,00,85,01,A5,00,00
3310801230,00000165,false,Rx,1,8,01,F4,00,00,00,00,01,83
3310805160,00000130,false,Rx,1,7,80,00,01,44,90,02,EA,00
3310808187,00000120,false,Rx,1,8,00,04,84,B0,00,00,02,F9
3310808564,00000110,false,Rx,1,5,91,00,00,03,F3,00,00,00
3310808788,00000115,false,Rx,1,7,80,00,80,00,00,03,44,00
3310810132,00000125,false,Rx,1,6,00,00,00,85,02,82,00,00
3310811230,00000165,false,Rx,1,8,01,F4,00,00,00,00,02,A4
3310815160,00000130,false,Rx,1,7,80,00,01,44,90,03,F7,00
3310818195,00000120,false,Rx,1,8,00,04,84,B0,00,00,03,E4
3310818579,00000110,false,Rx,1,5,91,00,00,04,A0,00,00,00
3310818803,00000115,false,Rx,1,7,80,00,80,00,00,04,17,00
3310820140,00000125,false,Rx,1,6,00,00,00,85,03,9F,00,00
3310821238,00000165,false,Rx,1,8,01,F4,00,00,00,00,03,B9
3310825169,00000130,false,Rx,1,7,80,00,01,44,90,04,A4,00
3310828196,00000120,false,Rx,1,8,00,04,84,B0,00,00,04,B7
3310828588,00000110,false,Rx,1,5,91,00,00,05,BD,00,00,00
3310828804,00000115,false,Rx,1,7,80,00,80,00,00,05,0A,00
3310830140,00000125,false,Rx,1,6,00,00,00,85,04,CC,00,00
3310831246,00000165,false,Rx,1,8,01,F4,00,00,00,00,04,EA
3310835170,00000130,false,Rx,1,7,80,00,01,44,90,05,B9,00
3310838198,00000120,false,Rx,1,8,00,04,84,B0,00,00,05,AA
3310838606,00000110,false,Rx,1,5,91,00,00,06,9A,00,00,00
3310838831,00000115,false,Rx,1,7,80,00,80,00,00,06,2D,00
3310840144,00000125,false,Rx,1,6,00,00,00,85,05,D1,00,00
3310841242,00000165,false,Rx,1,8,01,F4,00,00,00,00,05,F7
3310845167,00000130,false,Rx,1,7,80,00,01,44,90,06,9E,00
3310848201,00000120,false,Rx,1,8,00,04,84,B0,00,00,06,8D
3310848616,00000110,false,Rx,1,5,91,00,00,07,87,00,00,00
3310848841,00000115,false,Rx,1,7,80,00,80,00,00,07,30,00
3310850139,00000125,false,Rx,1,6,00,00,00,85,06,F6,00,00
3310851245,00000165,false,Rx,1,8,01,F4,00,00,00,00,06,D0
3310855167,00000130,false,Rx,1,7,80,00,01,44,90,07,83,00
3310857416,00000135,false,Rx,1,8,08,00,34,00,00,00,00,00
3310858204,00000120,false,Rx,1,8,00,04,84,B0,00,00,07,90
3310858644,00000110,false,Rx,1,5,91,00,00,08,3C,00,00,00
3310858868,00000115,false,Rx,1,7,80,00,80,00,00,08,8B,00
3310860145,00000125,false,Rx,1,6,00,00,00,85,07,EB,00,00
3310861248,00000165,false,Rx,1,8,01,F4,00,00,00,00,07,CD
3310865171,00000130,false,Rx,1,7,80,00,01,44,90,08,38,00
3310868207,00000120,false,Rx,1,8,00,04,84,B0,00,00,08,2B
3310868646,00000110,false,Rx,1,5,91,00,00,09,21,00,00,00
3310868870,00000115,false,Rx,1,7,80,00,80,00,00,09,96,00
3310870144,00000125,false,Rx,1,6,00,00,00,85,08,50,00,00
3310871242,00000165,false,Rx,1,8,01,F4,00,00,00,00,08,76
3310875172,00000130,false,Rx,1,7,80,00,01,44,90,09,25,00
3310878199,00000120,false,Rx,1,8,00,04,84,B0,00,00,09,36
3310878677,00000110,false,Rx,1,5,91,00,00,0A,06,00,00,00
3310878900,00000115,false,Rx,1,7,80,00,80,00,00,0A,B1,00
3310880144,00000125,false,Rx,1,6,00,00,00,85,09,4D,00,00
3310881242,00000165,false,Rx,1,8,01,F4,00,00,00,00,09,6B
3310885367,00000130,false,Rx,1,7,80,00,01,44,90,0A,02,00
3310888199,00000120,false,Rx,1,8,00,04,84,B0,00,00,0A,11
3310888677,00000110,false,Rx,1,5,91,00,00,0B,1B,00,00,00
3310888900,00000115,false,Rx,1,7,80,00,80,00,00,0B,AC,00
3310890144,00000125,false,Rx,1,6,00,00,00,85,0A,6A,00,00
3310891242,00000165,false,Rx,1,8,01,F4,00,00,00,00,0A,4C
3310895179,00000130,false,Rx,1,7,80,00,01,44,90,0B,1F,00
3310898206,00000120,false,Rx,1,8,00,04,84,B0,00,00,0B,0C
3310898715,00000110,false,Rx,1,5,91,00,00,0C,48,00,00,00
3310898945,00000115,false,Rx,1,7,80,00,80,00,00,0C,FF,00
3310900143,00000125,false,Rx,1,6,00,00,00,85,0B,77,00,00
3310901248,00000165,false,Rx,1,8,01,F4,00,00,00,00,0B,51
3310905178,00000130,false,Rx,1,7,80,00,01,44,90,0C,4C,00
3310908205,00000120,false,Rx,1,8,00,04,84,B0,00,00,0C,5F
3310908714,00000110,false,Rx,1,5,91,00,00,0D,55,00,00,00
3310908937,00000115,false,Rx,1,7,80,00,80,00,00,0D,E2,00
3310910149,00000125,false,Rx,1,6,00,00,00,85,0C,24,00,00
3310911247,00000165,false,Rx,1,8,01,F4,00,00,00,00,0C,02
3310915179,00000130,false,Rx,1,7,80,00,01,44,90,0D,51,00
3310918206,00000120,false,Rx,1,8,00,04,84,B0,00,00,0D,42
3310918745,00000110,false,Rx,1,5,91,00,00,0E,72,00,00,00
3310918967,00000115,false,Rx,1,7,80,00,80,00,00,0E,C5,00
3310920141,00000125,false,Rx,1,6,00,00,00,85,0D,39,00,00
3310921247,00000165,false,Rx,1,8,01,F4,00,00,00,00,0D,1F
3310925177,00000130,false,Rx,1,7,80,00,01,44,90,0E,76,00
3310928204,00000120,false,Rx,1,8,00,04,84,B0,00,00,0E,65
3310928752,00000110,false,Rx,1,5,91,00,00,0F,6F,00,00,00
3310928975,00000115,false,Rx,1,7,80,00,80,00,00,0F,D8,00
3310930149,00000125,false,Rx,1,6,00,00,00,85,0E,1E,00,00
3310931247,00000165,false,Rx,1,8,01,F4,00,00,00,00,0E,38
3310935177,00000130,false,Rx,1,7,80,00,01,44,90,0F,6B,00
3310938205,00000120,false,Rx,1,8,00,04,84,B0,00,00,0F,78
3310938775,00000110,false,Rx,1,5,91,00,00,00,D4,00,00,00
3310938998,00000115,false,Rx,1,7,80,00,80,00,00,00,63,00
3310940149,00000125,false,Rx,1,6,00,00,00,85,0F,03,00,00
3310941247,00000165,false,Rx,1,8,01,F4,00,00,00,00,0F,25
3310945177,00000130,false,Rx,1,7,80,00,01,44,90,00,D0,00
3310948205,00000120,false,Rx,1,8,00,04,84,B0,00,00,00,C3
3310948783,00000110,false,Rx,1,5,91,00,00,01,C9,00,00,00
3310949006,00000115,false,Rx,1,7,80,00,80,00,00,01,7E,00
3310950149,00000125,false,Rx,1,6,00,00,00,85,00,B8,00,00
3310951247,00000165,false,Rx,1,8,01,F4,00,00,00,00,00,9E
3310955177,00000130,false,Rx,1,7,80,00,01,44,90,01,CD,00
3310957417,00000135,false,Rx,1,8,08,00,34,00,00,00,00,00
3310958204,00000120,false,Rx,1,8,00,04,84,B0,00,00,01,DE
3310958808,00000110,false,Rx,1,5,91,00,00,02,EE,00,00,00
3310959030,00000115,false,Rx,1,7,80,00,80,00,00,02,59,00
3310960145,00000125,false,Rx,1,6,00,00,00,85,01,A5,00,00
3310961250,00000165,false,Rx,1,8,01,F4,00,00,00,00,01,83
3310965173,00000130,false,Rx,1,7,80,00,01,44,90,02,EA,00
3310968207,00000120,false,Rx,1,8,00,04,84,B0,00,00,02,F9
3310968817,00000110,false,Rx,1,5,91,00,00,03,F3,00,00,00
3310969041,00000115,false,Rx,1,7,80,00,80,00,00,03,44,00
3310970152,00000125,false,Rx,1,6,00,00,00,85,02,82,00,00
3310971250,00000165,false,Rx,1,8,01,F4,00,00,00,00,02,A4
3310975183,00000130,false,Rx,1,7,80,00,01,44,90,03,F7,00
3310978216,00000120,false,Rx,1,8,00,04,84,B0,00,00,03,E4
3310978857,00000110,false,Rx,1,5,91,00,00,04,A0,00,00,00
3310979081,00000115,false,Rx,1,7,80,00,80,00,00,04,17,00
3310980154,00000125,false,Rx,1,6,00,00,00,85,03,9F,00,00
3310981252,00000165,false,Rx,1,8,01,F4,00,00,00,00,03,B9
3310985175,00000130,false,Rx,1,7,80,00,01,44,90,04,A4,00
3310988208,00000120,false,Rx,1,8,00,04,84,B0,00,00,04,B7
3310988849,00000110,false,Rx,1,5,91,00,00,05,BD,00,00,00
3310989073,00000115,false,Rx,1,7,80,00,80,00,00,05,0A,00
3310990153,00000125,false,Rx,1,6,00,00,00,85,04,CC,00,00
3310991251,00000165,false,Rx,1,8,01,F4,00,00,00,00,04,EA
3310995182,00000130,false,Rx,1,7,80,00,01,44,90,05,B9,00
3310997406,00000145,false,Rx,1,8,04,55,55,55,55,55,55,55
3310998210,00000120,false,Rx,1,8,00,04,84,B0,00,00,05,AA
3310998896,00000110,false,Rx,1,5,91,00,00,06,9A,00,00,00
3310999120,00000115,false,Rx,1,7,80,00,80,00,00,06,2D,00
3311000157,00000125,false,Rx,1,6,00,00,00,85,05,D1,00,00
3311001253,00000165,false,Rx,1,8,01,F4,00,00,00,00,05,F7
3311005178,00000130,false,Rx,1,7,80,00,01,44,90,06,9E,00
3311008214,00000120,false,Rx,1,8,00,04,84,B0,00,00,06,8D
3311008876,00000110,false,Rx,1,5,91,00,00,07,87,00,00,00
3311009107,00000115,false,Rx,1,7,80,00,80,00,00,07,30,00
3311010149,00000125,false,Rx,1,6,00,00,00,85,06,F6,00,00
3311011264,00000165,false,Rx,1,8,01,F4,00,00,00,00,06,D0
3311015186,00000130,false,Rx,1,7,80,00,01,44,90,07,83,00
3311018212,00000120,false,Rx,1,8,00,04,84,B0,00,00,07,90
3311018921,00000110,false,Rx,1,5,91,00,00,08,3C,00,00,00
3311019144,00000115,false,Rx,1,7,80,00,80,00,00,08,8B,00
3311020156,00000125,false,Rx,1,6,00,00,00,85,07,EB,00,00
3311021256,00000165,false,Rx,1,8,01,F4,00,00,00,00,07,CD
3311025186,00000130,false,Rx,1,7,80,00,01,44,90,08,38,00
3311028214,00000120,false,Rx,1,8,00,04,84,B0,00,00,08,2B
3311028914,00000110,false,Rx,1,5,91,00,00,09,21,00,00,00
3311029138,00000115,false,Rx,1,7,80,00,80,00,00,09,96,00
3311030149,00000125,false,Rx,1,6,00,00,00,85,08,50,00,00
3311031249,00000165,false,Rx,1,8,01,F4,00,00,00,00,08,76
3311035188,00000130,false,Rx,1,7,80,00,01,44,90,09,25,00
